! Created Fri Dec 22 15:32:32 2023
! List of port names and net name(s): example Port n = <port_name> <net_name1> <net_name2> ...
! Port 1 = P1 N__1 P4 
! Port 2 = P3 N__1 P4 
# hz S ma R 50
! 2 Port Network Data from data block
! freq  magS11  angS11  magS21  angS21  magS12  angS12  magS22  angS22  
!     
           5.5e+10      0.0389873044         10.1914554         0.97975323        -52.9769292         0.97975323        -52.9769292       0.0391019601         9.99227251
    5.54347826e+10       0.039161025         9.85155914        0.979659497        -53.3911986        0.979659497        -53.3911986       0.0392768531         9.65080834
    5.58695652e+10      0.0393738289         9.51661296          0.9795826        -53.8030578          0.9795826        -53.8030578       0.0394908278         9.31516009
    5.63043478e+10      0.0395664422          9.1810054        0.979496923        -54.2160398        0.979496923        -54.2160398       0.0396845589         8.97844966
    5.67391304e+10      0.0397585647         8.84675775        0.979410854        -54.6289696        0.979410854        -54.6289696       0.0398777586         8.64311366
     5.7173913e+10      0.0399501766         8.51384756        0.979324371          -55.04185        0.979324371          -55.04185       0.0400704048         8.30912511
    5.76086956e+10       0.040141239         8.18229264        0.979237418        -55.4546848        0.979237418        -55.4546848       0.0402624558         7.97649735
    5.80434783e+10      0.0403317116         7.85211344        0.979149939        -55.8674766        0.979149939        -55.8674766        0.040453869         7.64524574
    5.84782609e+10      0.0405215014         7.52331591        0.979061858        -56.2802342        0.979061858        -56.2802342       0.0406445501         7.31536756
    5.89130435e+10       0.040710521         7.19591618        0.978973096        -56.6929642        0.978973096        -56.6929642       0.0408344095         6.98687242
    5.93478261e+10      0.0408986832         6.86993747         0.97888357        -57.1056714         0.97888357        -57.1056714       0.0410233586         6.65977948
    5.97826087e+10      0.0410858274         6.54541069        0.978793153         -57.518367        0.978793153         -57.518367       0.0412112354         6.33411152
    6.02173913e+10      0.0412655373         6.23653328        0.978689518        -57.9310563        0.978689518        -57.9310563       0.0413911412          6.0238198
    6.06521739e+10      0.0414606862         5.90602268        0.978606428        -58.3433316        0.978606428        -58.3433316       0.0415872401         5.69292931
    6.10869565e+10      0.0416543744         5.57959102        0.978520389         -58.755585        0.978520389         -58.755585       0.0417817443         5.36610429
    6.15217391e+10      0.0418460173         5.25653801        0.978431532        -59.1678425        0.978431532        -59.1678425       0.0419740825         5.04261181
    6.19565217e+10       0.042035493         4.93629368        0.978340113         -59.580132        0.978340113         -59.580132       0.0421641201         4.72188748
    6.23913044e+10      0.0422226824         4.61832405        0.978246423        -59.9924756        0.978246423        -59.9924756       0.0423518382          4.4033169
     6.2826087e+10      0.0424073823         4.30193211        0.978150743        -60.4048791        0.978150743        -60.4048791       0.0425369649         4.08625739
    6.32608696e+10      0.0425897771         3.98676062        0.978053367         -60.817359        0.978053367         -60.817359        0.042719725         3.77032601
    6.36956522e+10       0.042766949         3.67027145        0.977954643        -61.2301575        0.977954643        -61.2301575       0.0428972183         3.45297092
    6.41304348e+10      0.0429446953         3.35626304         0.97785456           -61.6428         0.97785456           -61.6428       0.0430752392         3.13800439
    6.45652174e+10      0.0431203473         3.04246019        0.977753389        -62.0555224        0.977753389        -62.0555224       0.0432511333         2.82313546
           6.5e+10      0.0432942028         2.72881608        0.977651226        -62.4683443        0.977651226        -62.4683443       0.0434252004         2.50832112
